
T1D10 000:137 SEGGER J-Link V6.10i Log File (0000ms, 0049ms total)
T1D10 000:137 DLL Compiled: Oct 25 2016 19:31:51 (0000ms, 0049ms total)
T1D10 000:137 Logging started @ 2018-01-02 16:52 (0000ms, 0049ms total)
T1D10 000:137 JLINK_SetWarnOutHandler(...) (0000ms, 0049ms total)
T1D10 000:137 JLINK_OpenEx(...)
Firmware: J-Link OB-STM32F103-CortexM compiled Mar  8 2020 11:15:54
Hardware: V1.00
Feature(s): GDB, RDI, FlashBP, FlashDL, JFlash, RDDIWEBSRV Webserver running on local port 19080 (0037ms, 0086ms total)
T1D10 000:137   returns O.K. (0037ms, 0086ms total)
T1D10 000:174 JLINK_SetErrorOutHandler(...) (0000ms, 0086ms total)
T1D10 000:174 JLINK_ExecCommand("ProjectFile = "C:\Users\t\Desktop\wm_lan9252_ADC_20171229\wm_lan9252_IO_20171109\Project\JLinkSettings.ini"", ...). Device "STM32F407ZG" selected.  returns 0x00 (0107ms, 0193ms total)
T1D10 000:281 JLINK_ExecCommand("Device = STM32F407ZE", ...). Device "STM32F407ZG" selected.  returns 0x00 (0001ms, 0194ms total)
T1D10 000:282 JLINK_ExecCommand("DisableConnectionTimeout", ...).   returns 0x01 (0000ms, 0194ms total)
T1D10 000:282 JLINK_GetHardwareVersion()  returns 0x2710 (0000ms, 0194ms total)
T1D10 000:282 JLINK_GetDLLVersion()  returns 61009 (0000ms, 0194ms total)
T1D10 000:282 JLINK_GetFirmwareString(...) (0000ms, 0194ms total)
T1D10 000:282 JLINK_GetDLLVersion()  returns 61009 (0000ms, 0194ms total)
T1D10 000:282 JLINK_GetCompileDateTime() (0000ms, 0194ms total)
T1D10 000:282 JLINK_GetFirmwareString(...) (0000ms, 0194ms total)
T1D10 000:282 JLINK_GetHardwareVersion()  returns 0x2710 (0000ms, 0194ms total)
T1D10 000:282 JLINK_TIF_Select(JLINKARM_TIF_SWD)  returns 0x00 (0004ms, 0198ms total)
T1D10 000:286 JLINK_SetSpeed(5000) (0001ms, 0199ms total)
T1D10 000:287 JLINK_GetId() >0x108 TIF>Found SWD-DP with ID 0x2BA01477 >0x0D TIF> >0x28 TIF> >0x0D TIF> >0x28 TIF> >0x0D TIF> >0x28 TIF> >0x0D TIF> >0x28 TIF> >0x0D TIF> >0x21 TIF> >0x0D TIF> >0x28 TIF> >0x0D TIF> >0x28 TIF> >0x0D TIF> >0x28 TIF> >0x0D TIF> >0x21 TIF> >0x0D TIF> >0x21 TIF> >0x0D TIF> >0x28 TIF> >0x0D TIF> >0x21 TIF> >0x0D TIF> >0x21 TIF> >0x0D TIF> >0x28 TIF> >0x0D TIF> >0x21 TIF> >0x0D TIF> >0x21 TIF> >0x0D TIF> >0x28 TIF> >0x0D TIF> >0x21 TIF> >0x0D TIF> >0x21 TIF> >0x0D TIF>
 >0x28 TIF> >0x0D TIF> >0x21 TIF> >0x0D TIF> >0x21 TIF> >0x0D TIF> >0x28 TIF> >0x0D TIF> >0x21 TIF> >0x0D TIF> >0x21 TIF> >0x108 TIF>Found SWD-DP with ID 0x2BA01477 >0x0D TIF> >0x28 TIF> >0x0D TIF> >0x28 TIF> >0x0D TIF> >0x28 TIF> >0x0D TIF> >0x28 TIF> >0x0D TIF> >0x21 TIF> >0x0D TIF> >0x28 TIF> >0x0D TIF> >0x28 TIF> >0x0D TIF> >0x21 TIF> >0x0D TIF> >0x21 TIF> >0x0D TIF> >0x21 TIF>AP-IDR: 0x24770011, Type: AHB-AP >0x0D TIF> >0x28 TIF> >0x0D TIF> >0x28 TIF> >0x0D TIF> >0x28 TIF> >0x0D TIF> >0x21 TIF>
 >0x0D TIF> >0x21 TIF> >0x0D TIF> >0x28 TIF> >0x0D TIF> >0x21 TIF> >0x0D TIF> >0x21 TIF>Found Cortex-M4 r0p1, Little endian. -- CPU_ReadMem(4 bytes @ 0xE000EDF0) -- CPU_WriteMem(4 bytes @ 0xE000EDF0) -- CPU_ReadMem(4 bytes @ 0xE0002000)FPUnit: 6 code (BP) slots and 2 literal slots -- CPU_ReadMem(4 bytes @ 0xE000EDFC) -- CPU_WriteMem(4 bytes @ 0xE000EDFC) -- CPU_ReadMem(4 bytes @ 0xE0001000) -- CPU_WriteMem(4 bytes @ 0xE0001000) -- CPU_ReadMem(4 bytes @ 0xE000ED88) -- CPU_WriteMem(4 bytes @ 0xE000ED88)
 -- CPU_ReadMem(4 bytes @ 0xE000ED88) -- CPU_WriteMem(4 bytes @ 0xE000ED88)CoreSight components:ROMTbl 0 @ E00FF000 -- CPU_ReadMem(16 bytes @ 0xE00FF000) -- CPU_ReadMem(16 bytes @ 0xE000EFF0) -- CPU_ReadMem(16 bytes @ 0xE000EFE0)ROMTbl 0 [0]: FFF0F000, CID: B105E00D, PID: 000BB00C SCS -- CPU_ReadMem(16 bytes @ 0xE0001FF0) -- CPU_ReadMem(16 bytes @ 0xE0001FE0)ROMTbl 0 [1]: FFF02000, CID: B105E00D, PID: 003BB002 DWT -- CPU_ReadMem(16 bytes @ 0xE0002FF0) -- CPU_ReadMem(16 bytes @ 0xE0002FE0)
ROMTbl 0 [2]: FFF03000, CID: B105E00D, PID: 002BB003 FPB -- CPU_ReadMem(16 bytes @ 0xE0000FF0) -- CPU_ReadMem(16 bytes @ 0xE0000FE0)ROMTbl 0 [3]: FFF01000, CID: B105E00D, PID: 003BB001 ITM -- CPU_ReadMem(16 bytes @ 0xE00FF010) -- CPU_ReadMem(16 bytes @ 0xE0040FF0) -- CPU_ReadMem(16 bytes @ 0xE0040FE0)ROMTbl 0 [4]: FFF41000, CID: B105900D, PID: 000BB9A1 TPIU -- CPU_ReadMem(16 bytes @ 0xE0041FF0) -- CPU_ReadMem(16 bytes @ 0xE0041FE0)ROMTbl 0 [5]: FFF42000, CID: B105900D, PID: 000BB925 ETM >0x0D TIF>
 >0x21 TIF>  returns 0x2BA01477 (0121ms, 0320ms total)
T1D10 000:408 JLINK_GetDLLVersion()  returns 61009 (0000ms, 0320ms total)
T1D10 000:408 JLINK_CORE_GetFound()  returns 0xE0000FF (0001ms, 0321ms total)
T1D10 000:409 JLINK_GetDebugInfo(0x100) -- Value=0xE00FF000  returns 0x00 (0000ms, 0321ms total)
T1D10 000:409 JLINK_GetDebugInfo(0x100) -- Value=0xE00FF000  returns 0x00 (0000ms, 0321ms total)
T1D10 000:409 JLINK_GetDebugInfo(0x101) -- Value=0xE0041000  returns 0x00 (0000ms, 0321ms total)
T1D10 000:409 JLINK_GetDebugInfo(0x102) -- Value=0x00000000  returns 0x00 (0000ms, 0321ms total)
T1D10 000:409 JLINK_GetDebugInfo(0x103) -- Value=0xE0040000  returns 0x00 (0000ms, 0321ms total)
T1D10 000:409 JLINK_GetDebugInfo(0x104) -- Value=0xE0000000  returns 0x00 (0000ms, 0321ms total)
T1D10 000:409 JLINK_GetDebugInfo(0x105) -- Value=0xE0001000  returns 0x00 (0000ms, 0321ms total)
T1D10 000:409 JLINK_GetDebugInfo(0x106) -- Value=0xE0002000  returns 0x00 (0000ms, 0321ms total)
T1D10 000:409 JLINK_GetDebugInfo(0x107) -- Value=0xE000E000  returns 0x00 (0000ms, 0321ms total)
T1D10 000:409 JLINK_GetDebugInfo(0x10C) -- Value=0xE000EDF0  returns 0x00 (0000ms, 0321ms total)
T1D10 000:409 JLINK_ReadMemU32(0xE000EF40, 0x0001 Items, ...) -- CPU is running -- CPU_ReadMem(4 bytes @ 0xE000EF40) - Data: 21 00 11 10  returns 0x01 (0002ms, 0323ms total)
T1D10 000:411 JLINK_ReadMemU32(0xE000EF44, 0x0001 Items, ...) -- CPU is running -- CPU_ReadMem(4 bytes @ 0xE000EF44) - Data: 11 00 00 11  returns 0x01 (0001ms, 0324ms total)
T1D10 000:412 JLINK_ReadMemU32(0xE000ED00, 0x0001 Items, ...) -- CPU is running -- CPU_ReadMem(4 bytes @ 0xE000ED00) - Data: 41 C2 0F 41  returns 0x01 (0001ms, 0325ms total)
T1D10 000:413 JLINK_SetResetType(JLINKARM_RESET_TYPE_NORMAL)  returns JLINKARM_RESET_TYPE_NORMAL (0000ms, 0325ms total)
T1D10 000:413 JLINK_Reset() -- CPU is running -- CPU_WriteMem(4 bytes @ 0xE000EDF0) -- CPU is running -- CPU_WriteMem(4 bytes @ 0xE000EDFC) >0x35 TIF> -- CPU is running -- CPU_WriteMem(4 bytes @ 0xE000ED0C) -- CPU is running -- CPU_ReadMem(4 bytes @ 0xE000EDF0) -- CPU is running -- CPU_ReadMem(4 bytes @ 0xE000EDF0) -- CPU is running -- CPU_ReadMem(4 bytes @ 0xE000EDF0) -- CPU is running -- CPU_ReadMem(4 bytes @ 0xE000EDF0) -- CPU is running -- CPU_ReadMem(4 bytes @ 0xE000EDF0) -- CPU is running
 -- CPU_ReadMem(4 bytes @ 0xE000EDF0) -- CPU is running -- CPU_ReadMem(4 bytes @ 0xE000EDF0) -- CPU is running -- CPU_ReadMem(4 bytes @ 0xE000EDF0) -- CPU is running -- CPU_ReadMem(4 bytes @ 0xE000EDF0) -- CPU is running -- CPU_ReadMem(4 bytes @ 0xE000EDF0) -- CPU is running -- CPU_ReadMem(4 bytes @ 0xE000EDF0) -- CPU is running -- CPU_ReadMem(4 bytes @ 0xE000EDF0) -- CPU is running -- CPU_ReadMem(4 bytes @ 0xE000EDF0) -- CPU is running -- CPU_ReadMem(4 bytes @ 0xE000EDF0) -- CPU is running
 -- CPU_ReadMem(4 bytes @ 0xE000EDF0) -- CPU is running -- CPU_ReadMem(4 bytes @ 0xE000EDF0) -- CPU is running -- CPU_ReadMem(4 bytes @ 0xE000EDF0) -- CPU is running -- CPU_ReadMem(4 bytes @ 0xE000EDF0) -- CPU is running -- CPU_ReadMem(4 bytes @ 0xE000EDF0) -- CPU is running -- CPU_ReadMem(4 bytes @ 0xE000EDF0) -- CPU is running -- CPU_ReadMem(4 bytes @ 0xE000EDF0) -- CPU is running -- CPU_ReadMem(4 bytes @ 0xE000EDF0) -- CPU is running -- CPU_ReadMem(4 bytes @ 0xE000EDF0) -- CPU is running
 -- CPU_ReadMem(4 bytes @ 0xE000EDF0) -- CPU is running -- CPU_ReadMem(4 bytes @ 0xE000EDF0) -- CPU is running -- CPU_ReadMem(4 bytes @ 0xE000EDF0) -- CPU is running -- CPU_ReadMem(4 bytes @ 0xE000EDF0) -- CPU is running -- CPU_ReadMem(4 bytes @ 0xE000EDF0) -- CPU is running -- CPU_ReadMem(4 bytes @ 0xE000EDF0) -- CPU is running -- CPU_ReadMem(4 bytes @ 0xE000EDF0) -- CPU is running -- CPU_WriteMem(4 bytes @ 0xE000EDF0) -- CPU is running -- CPU_WriteMem(4 bytes @ 0xE000EDFC) -- CPU is running
 -- CPU_ReadMem(4 bytes @ 0xE000EDF0) -- CPU_WriteMem(4 bytes @ 0xE0002000) -- CPU_ReadMem(4 bytes @ 0xE000EDFC) -- CPU_ReadMem(4 bytes @ 0xE0001000) (0053ms, 0378ms total)
T1D10 000:466 JLINK_ReadReg(R15 (PC))  returns 0x0800019C (0000ms, 0378ms total)
T1D10 000:466 JLINK_ReadReg(XPSR)  returns 0x01000000 (0000ms, 0378ms total)
T1D10 000:466 JLINK_Halt()  returns 0x00 (0000ms, 0378ms total)
T1D10 000:466 JLINK_IsHalted()  returns TRUE (0001ms, 0379ms total)
T1D10 000:467 JLINK_ReadMemU32(0xE000EDF0, 0x0001 Items, ...) -- CPU_ReadMem(4 bytes @ 0xE000EDF0) - Data: 03 00 03 00  returns 0x01 (0001ms, 0379ms total)
T1D10 000:468 JLINK_WriteU32(0xE000EDF0, 0xA05F0003) -- CPU_WriteMem(4 bytes @ 0xE000EDF0)  returns 0x00 (0001ms, 0380ms total)
T1D10 000:469 JLINK_WriteU32(0xE000EDFC, 0x01000000) -- CPU_WriteMem(4 bytes @ 0xE000EDFC)  returns 0x00 (0001ms, 0381ms total)
T1D10 000:470 JLINK_GetHWStatus(...)  returns 0x00 (0001ms, 0382ms total)
T1D10 000:471 JLINK_GetNumBPUnits(Type = 0xFFFFFF00)  returns 0x06 (0000ms, 0382ms total)
T1D10 000:471 JLINK_GetNumBPUnits(Type = 0xF0)  returns 0x2000 (0000ms, 0382ms total)
T1D10 000:471 JLINK_GetNumWPUnits()  returns 0x04 (0001ms, 0383ms total)
T1D10 000:472 JLINK_GetSpeed()  returns 0x7D0 (0000ms, 0383ms total)
T1D10 000:472 JLINK_ReadMemU32(0xE000E004, 0x0001 Items, ...) -- CPU_ReadMem(4 bytes @ 0xE000E004) - Data: 02 00 00 00  returns 0x01 (0001ms, 0384ms total)
T1D10 000:473 JLINK_ReadMemU32(0xE000E004, 0x0001 Items, ...) -- CPU_ReadMem(4 bytes @ 0xE000E004) - Data: 02 00 00 00  returns 0x01 (0001ms, 0385ms total)
T1D10 000:474 JLINK_WriteMem(0xE0001000, 0x001C Bytes, ...) - Data: 01 00 00 00 00 00 00 00 00 00 00 00 00 00 00 00 ... -- CPU_WriteMem(28 bytes @ 0xE0001000)  returns 0x1C (0003ms, 0388ms total)
T1D10 000:477 JLINK_ReadMem (0xE0001000, 0x001C Bytes, ...) -- CPU_ReadMem(28 bytes @ 0xE0001000) - Data: 01 00 00 40 00 00 00 00 00 00 00 00 00 00 00 00 ...  returns 0x00 (0001ms, 0389ms total)
T1D10 000:478 JLINK_ReadReg(R15 (PC))  returns 0x0800019C (0000ms, 0389ms total)
T1D10 000:478 JLINK_ReadReg(XPSR)  returns 0x01000000 (0000ms, 0389ms total)
T1D10 000:575 JLINK_SetResetType(JLINKARM_RESET_TYPE_NORMAL)  returns JLINKARM_RESET_TYPE_NORMAL (0000ms, 0389ms total)
T1D10 000:575 JLINK_Reset() -- CPU_WriteMem(4 bytes @ 0xE000EDF0) -- CPU_WriteMem(4 bytes @ 0xE000EDFC) >0x35 TIF> -- CPU_WriteMem(4 bytes @ 0xE000ED0C) -- CPU_ReadMem(4 bytes @ 0xE000EDF0) -- CPU_ReadMem(4 bytes @ 0xE000EDF0) -- CPU_ReadMem(4 bytes @ 0xE000EDF0) -- CPU_ReadMem(4 bytes @ 0xE000EDF0) -- CPU_ReadMem(4 bytes @ 0xE000EDF0) -- CPU_ReadMem(4 bytes @ 0xE000EDF0) -- CPU_ReadMem(4 bytes @ 0xE000EDF0) -- CPU_ReadMem(4 bytes @ 0xE000EDF0) -- CPU_ReadMem(4 bytes @ 0xE000EDF0)
 -- CPU_ReadMem(4 bytes @ 0xE000EDF0) -- CPU_ReadMem(4 bytes @ 0xE000EDF0) -- CPU_ReadMem(4 bytes @ 0xE000EDF0) -- CPU_ReadMem(4 bytes @ 0xE000EDF0) -- CPU_ReadMem(4 bytes @ 0xE000EDF0) -- CPU_ReadMem(4 bytes @ 0xE000EDF0) -- CPU_ReadMem(4 bytes @ 0xE000EDF0) -- CPU_ReadMem(4 bytes @ 0xE000EDF0) -- CPU_ReadMem(4 bytes @ 0xE000EDF0) -- CPU_ReadMem(4 bytes @ 0xE000EDF0) -- CPU_ReadMem(4 bytes @ 0xE000EDF0) -- CPU_ReadMem(4 bytes @ 0xE000EDF0) -- CPU_ReadMem(4 bytes @ 0xE000EDF0)
 -- CPU_ReadMem(4 bytes @ 0xE000EDF0) -- CPU_ReadMem(4 bytes @ 0xE000EDF0) -- CPU_ReadMem(4 bytes @ 0xE000EDF0) -- CPU_ReadMem(4 bytes @ 0xE000EDF0) -- CPU_ReadMem(4 bytes @ 0xE000EDF0) -- CPU_ReadMem(4 bytes @ 0xE000EDF0) -- CPU_ReadMem(4 bytes @ 0xE000EDF0) -- CPU_ReadMem(4 bytes @ 0xE000EDF0) -- CPU_ReadMem(4 bytes @ 0xE000EDF0) -- CPU_WriteMem(4 bytes @ 0xE000EDF0) -- CPU_WriteMem(4 bytes @ 0xE000EDFC) -- CPU is running -- CPU_ReadMem(4 bytes @ 0xE000EDF0) -- CPU_WriteMem(4 bytes @ 0xE0002000)
 -- CPU_ReadMem(4 bytes @ 0xE000EDFC) -- CPU_ReadMem(4 bytes @ 0xE0001000) (0055ms, 0444ms total)
T1D10 000:630 JLINK_ReadReg(R15 (PC))  returns 0x0800019C (0000ms, 0444ms total)
T1D10 000:630 JLINK_ReadReg(XPSR)  returns 0x01000000 (0000ms, 0444ms total)
T1D10 000:631 JLINK_ReadMem (0x08000188, 0x003C Bytes, ...) -- CPU_ReadMem(128 bytes @ 0x08000180) -- Updating C cache (128 bytes @ 0x08000180) -- Read from C cache (60 bytes @ 0x08000188) - Data: DF F8 0C D0 08 F0 E8 F9 00 48 00 47 27 43 00 08 ...  returns 0x00 (0002ms, 0446ms total)
T1D10 002:504 JLINK_ReadMem (0x200004D4, 0x0002 Bytes, ...) -- CPU_ReadMem(64 bytes @ 0x200004C0) -- Updating C cache (64 bytes @ 0x200004C0) -- Read from C cache (2 bytes @ 0x200004D4) - Data: 00 00  returns 0x00 (0001ms, 0447ms total)
T0B30 002:538 JLINK_SetBPEx(Addr = 0x08004326, Type = 0xFFFFFFF2)  returns 0x00000001 (0001ms, 0448ms total)
T0B30 002:539 JLINK_SetBPEx(Addr = 0x080043E0, Type = 0xFFFFFFF2)  returns 0x00000002 (0000ms, 0448ms total)
T0B30 002:539 JLINK_Go() -- CPU_WriteMem(4 bytes @ 0xE0002000) -- CPU_WriteMem(4 bytes @ 0xE0002000) -- CPU_ReadMem(4 bytes @ 0xE0001000) -- CPU_WriteMem(4 bytes @ 0xE0002008) -- CPU_WriteMem(4 bytes @ 0xE000200C) -- CPU_WriteMem(4 bytes @ 0xE0002010) -- CPU_WriteMem(4 bytes @ 0xE0002014) -- CPU_WriteMem(4 bytes @ 0xE0002018) -- CPU_WriteMem(4 bytes @ 0xE000201C) -- CPU_WriteMem(4 bytes @ 0xE0001004) (0011ms, 0459ms total)
T0B30 002:650 JLINK_IsHalted()  returns TRUE (0005ms, 0464ms total)
T0B30 002:655 JLINK_Halt()  returns 0x00 (0000ms, 0459ms total)
T0B30 002:655 JLINK_IsHalted()  returns TRUE (0000ms, 0459ms total)
T0B30 002:655 JLINK_IsHalted()  returns TRUE (0000ms, 0459ms total)
T0B30 002:655 JLINK_IsHalted()  returns TRUE (0000ms, 0459ms total)
T0B30 002:655 JLINK_ReadReg(R15 (PC))  returns 0x08004326 (0000ms, 0459ms total)
T0B30 002:655 JLINK_ReadReg(XPSR)  returns 0x61000000 (0000ms, 0459ms total)
T0B30 002:655 JLINK_ClrBPEx(BPHandle = 0x00000001)  returns 0x00 (0000ms, 0459ms total)
T0B30 002:655 JLINK_ClrBPEx(BPHandle = 0x00000002)  returns 0x00 (0000ms, 0459ms total)
T0B30 002:655 JLINK_ReadMemU32(0xE000ED30, 0x0001 Items, ...) -- CPU_ReadMem(4 bytes @ 0xE000ED30) - Data: 02 00 00 00  returns 0x01 (0002ms, 0461ms total)
T0B30 002:657 JLINK_ReadMemU32(0xE0001028, 0x0001 Items, ...) -- CPU_ReadMem(4 bytes @ 0xE0001028) - Data: 00 00 00 00  returns 0x01 (0001ms, 0462ms total)
T0B30 002:658 JLINK_ReadMemU32(0xE0001038, 0x0001 Items, ...) -- CPU_ReadMem(4 bytes @ 0xE0001038) - Data: 00 02 00 00  returns 0x01 (0001ms, 0463ms total)
T0B30 002:659 JLINK_ReadMemU32(0xE0001048, 0x0001 Items, ...) -- CPU_ReadMem(4 bytes @ 0xE0001048) - Data: 00 00 00 00  returns 0x01 (0001ms, 0464ms total)
T0B30 002:660 JLINK_ReadMemU32(0xE0001058, 0x0001 Items, ...) -- CPU_ReadMem(4 bytes @ 0xE0001058) - Data: 00 00 00 00  returns 0x01 (0001ms, 0465ms total)
T0B30 002:661 JLINK_ReadReg(R0)  returns 0x08004327 (0000ms, 0465ms total)
T0B30 002:661 JLINK_ReadReg(R1)  returns 0x20004930 (0000ms, 0465ms total)
T0B30 002:661 JLINK_ReadReg(R2)  returns 0x00000000 (0000ms, 0465ms total)
T0B30 002:661 JLINK_ReadReg(R3)  returns 0x080085EB (0000ms, 0465ms total)
T0B30 002:661 JLINK_ReadReg(R4)  returns 0x08008D5C (0000ms, 0465ms total)
T0B30 002:661 JLINK_ReadReg(R5)  returns 0x08008D5C (0000ms, 0465ms total)
T0B30 002:661 JLINK_ReadReg(R6)  returns 0x00000000 (0000ms, 0465ms total)
T0B30 002:661 JLINK_ReadReg(R7)  returns 0x00000000 (0000ms, 0465ms total)
T0B30 002:661 JLINK_ReadReg(R8)  returns 0x00000000 (0000ms, 0465ms total)
T0B30 002:661 JLINK_ReadReg(R9)  returns 0x00000000 (0001ms, 0466ms total)
T0B30 002:662 JLINK_ReadReg(R10)  returns 0x00000000 (0000ms, 0466ms total)
T0B30 002:662 JLINK_ReadReg(R11)  returns 0x00000000 (0000ms, 0466ms total)
T0B30 002:662 JLINK_ReadReg(R12)  returns 0x00000000 (0000ms, 0466ms total)
T0B30 002:662 JLINK_ReadReg(R13 (SP))  returns 0x20004930 (0000ms, 0466ms total)
T0B30 002:662 JLINK_ReadReg(R14)  returns 0x0800857D (0000ms, 0466ms total)
T0B30 002:662 JLINK_ReadReg(R15 (PC))  returns 0x08004326 (0000ms, 0466ms total)
T0B30 002:662 JLINK_ReadReg(XPSR)  returns 0x61000000 (0000ms, 0466ms total)
T0B30 002:662 JLINK_ReadReg(MSP)  returns 0x20004930 (0000ms, 0466ms total)
T0B30 002:662 JLINK_ReadReg(PSP)  returns 0x00000000 (0000ms, 0466ms total)
T0B30 002:662 JLINK_ReadReg(CFBP)  returns 0x00000000 (0000ms, 0466ms total)
T0B30 002:662 JLINK_ReadReg(FPSCR)  returns 0x00000000 (0008ms, 0474ms total)
T0B30 002:670 JLINK_ReadReg(FPS0)  returns 0x00000000 (0000ms, 0474ms total)
T0B30 002:670 JLINK_ReadReg(FPS1)  returns 0x00000000 (0000ms, 0474ms total)
T0B30 002:670 JLINK_ReadReg(FPS2)  returns 0x00000000 (0000ms, 0474ms total)
T0B30 002:670 JLINK_ReadReg(FPS3)  returns 0x00000000 (0000ms, 0474ms total)
T0B30 002:670 JLINK_ReadReg(FPS4)  returns 0x00000000 (0000ms, 0474ms total)
T0B30 002:670 JLINK_ReadReg(FPS5)  returns 0x00000000 (0000ms, 0474ms total)
T0B30 002:670 JLINK_ReadReg(FPS6)  returns 0x00000000 (0000ms, 0474ms total)
T0B30 002:670 JLINK_ReadReg(FPS7)  returns 0x00000000 (0000ms, 0474ms total)
T0B30 002:670 JLINK_ReadReg(FPS8)  returns 0x00000000 (0000ms, 0474ms total)
T0B30 002:670 JLINK_ReadReg(FPS9)  returns 0x00000000 (0000ms, 0474ms total)
T0B30 002:670 JLINK_ReadReg(FPS10)  returns 0x00000000 (0000ms, 0474ms total)
T0B30 002:670 JLINK_ReadReg(FPS11)  returns 0x00000000 (0000ms, 0474ms total)
T0B30 002:670 JLINK_ReadReg(FPS12)  returns 0x00000000 (0000ms, 0474ms total)
T0B30 002:670 JLINK_ReadReg(FPS13)  returns 0x00000000 (0000ms, 0474ms total)
T0B30 002:670 JLINK_ReadReg(FPS14)  returns 0x00000000 (0000ms, 0474ms total)
T0B30 002:670 JLINK_ReadReg(FPS15)  returns 0x00000000 (0000ms, 0474ms total)
T0B30 002:670 JLINK_ReadReg(FPS16)  returns 0x00000000 (0001ms, 0475ms total)
T0B30 002:671 JLINK_ReadReg(FPS17)  returns 0x00000000 (0000ms, 0475ms total)
T0B30 002:671 JLINK_ReadReg(FPS18)  returns 0x00000000 (0000ms, 0475ms total)
T0B30 002:671 JLINK_ReadReg(FPS19)  returns 0x00000000 (0000ms, 0475ms total)
T0B30 002:671 JLINK_ReadReg(FPS20)  returns 0x00000000 (0000ms, 0475ms total)
T0B30 002:671 JLINK_ReadReg(FPS21)  returns 0x00000000 (0000ms, 0475ms total)
T0B30 002:671 JLINK_ReadReg(FPS22)  returns 0x00000000 (0000ms, 0475ms total)
T0B30 002:671 JLINK_ReadReg(FPS23)  returns 0x00000000 (0000ms, 0475ms total)
T0B30 002:671 JLINK_ReadReg(FPS24)  returns 0x00000000 (0000ms, 0475ms total)
T0B30 002:671 JLINK_ReadReg(FPS25)  returns 0x00000000 (0000ms, 0475ms total)
T0B30 002:671 JLINK_ReadReg(FPS26)  returns 0x00000000 (0000ms, 0475ms total)
T0B30 002:671 JLINK_ReadReg(FPS27)  returns 0x00000000 (0000ms, 0475ms total)
T0B30 002:671 JLINK_ReadReg(FPS28)  returns 0x00000000 (0000ms, 0475ms total)
T0B30 002:671 JLINK_ReadReg(FPS29)  returns 0x00000000 (0000ms, 0475ms total)
T0B30 002:671 JLINK_ReadReg(FPS30)  returns 0x00000000 (0000ms, 0475ms total)
T0B30 002:671 JLINK_ReadReg(FPS31)  returns 0x00000000 (0000ms, 0475ms total)
T1D10 002:674 JLINK_ReadMem (0x08004322, 0x0002 Bytes, ...) -- CPU_ReadMem(64 bytes @ 0x08004300) -- Updating C cache (64 bytes @ 0x08004300) -- Read from C cache (2 bytes @ 0x08004322) - Data: 00 20  returns 0x00 (0002ms, 0477ms total)
T1D10 002:676 JLINK_ReadMem (0x08004324, 0x003C Bytes, ...) -- CPU_ReadMem(64 bytes @ 0x08004340) -- Updating C cache (64 bytes @ 0x08004340) -- Read from C cache (60 bytes @ 0x08004324) - Data: E0 E7 10 B5 FF F7 F5 FD 01 20 33 49 1C 31 08 60 ...  returns 0x00 (0002ms, 0479ms total)
T0B30 003:460 JLINK_SetBPEx(Addr = 0x080043E0, Type = 0xFFFFFFF2)  returns 0x00000003 (0000ms, 0479ms total)
T0B30 003:460 JLINK_Go() -- CPU_WriteMem(4 bytes @ 0xE0002000) -- CPU_ReadMem(4 bytes @ 0xE0001000) -- CPU_WriteMem(4 bytes @ 0xE0002008) -- CPU_WriteMem(4 bytes @ 0xE000200C) (0005ms, 0484ms total)
T0B30 003:566 JLINK_IsHalted()  returns TRUE (0006ms, 0491ms total)
T0B30 003:572 JLINK_Halt()  returns 0x00 (0000ms, 0485ms total)
T0B30 003:572 JLINK_IsHalted()  returns TRUE (0000ms, 0485ms total)
T0B30 003:572 JLINK_IsHalted()  returns TRUE (0000ms, 0485ms total)
T0B30 003:572 JLINK_IsHalted()  returns TRUE (0000ms, 0485ms total)
T0B30 003:572 JLINK_ReadReg(R15 (PC))  returns 0x080043E0 (0000ms, 0485ms total)
T0B30 003:572 JLINK_ReadReg(XPSR)  returns 0x21000000 (0000ms, 0485ms total)
T0B30 003:572 JLINK_ClrBPEx(BPHandle = 0x00000003)  returns 0x00 (0000ms, 0485ms total)
T0B30 003:572 JLINK_ReadMemU32(0xE000ED30, 0x0001 Items, ...) -- CPU_ReadMem(4 bytes @ 0xE000ED30) - Data: 02 00 00 00  returns 0x01 (0002ms, 0487ms total)
T0B30 003:574 JLINK_ReadMemU32(0xE0001028, 0x0001 Items, ...) -- CPU_ReadMem(4 bytes @ 0xE0001028) - Data: 00 00 00 00  returns 0x01 (0001ms, 0488ms total)
T0B30 003:575 JLINK_ReadMemU32(0xE0001038, 0x0001 Items, ...) -- CPU_ReadMem(4 bytes @ 0xE0001038) - Data: 00 02 00 00  returns 0x01 (0001ms, 0489ms total)
T0B30 003:576 JLINK_ReadMemU32(0xE0001048, 0x0001 Items, ...) -- CPU_ReadMem(4 bytes @ 0xE0001048) - Data: 00 00 00 00  returns 0x01 (0001ms, 0490ms total)
T0B30 003:577 JLINK_ReadMemU32(0xE0001058, 0x0001 Items, ...) -- CPU_ReadMem(4 bytes @ 0xE0001058) - Data: 00 00 00 00  returns 0x01 (0001ms, 0491ms total)
T0B30 003:578 JLINK_ReadReg(R0)  returns 0x00000000 (0000ms, 0491ms total)
T0B30 003:578 JLINK_ReadReg(R1)  returns 0x20000594 (0000ms, 0491ms total)
T0B30 003:578 JLINK_ReadReg(R2)  returns 0x00000001 (0000ms, 0491ms total)
T0B30 003:578 JLINK_ReadReg(R3)  returns 0x00000000 (0000ms, 0491ms total)
T0B30 003:578 JLINK_ReadReg(R4)  returns 0x08008D5C (0000ms, 0491ms total)
T0B30 003:578 JLINK_ReadReg(R5)  returns 0x08008D5C (0000ms, 0491ms total)
T0B30 003:578 JLINK_ReadReg(R6)  returns 0x00000000 (0000ms, 0491ms total)
T0B30 003:578 JLINK_ReadReg(R7)  returns 0x00000000 (0000ms, 0491ms total)
T0B30 003:578 JLINK_ReadReg(R8)  returns 0x00000000 (0001ms, 0492ms total)
T0B30 003:579 JLINK_ReadReg(R9)  returns 0x00000000 (0000ms, 0492ms total)
T0B30 003:579 JLINK_ReadReg(R10)  returns 0x00000000 (0000ms, 0492ms total)
T0B30 003:579 JLINK_ReadReg(R11)  returns 0x00000000 (0000ms, 0492ms total)
T0B30 003:579 JLINK_ReadReg(R12)  returns 0x00000000 (0000ms, 0492ms total)
T0B30 003:579 JLINK_ReadReg(R13 (SP))  returns 0x20004928 (0000ms, 0492ms total)
T0B30 003:579 JLINK_ReadReg(R14)  returns 0x080043DD (0000ms, 0492ms total)
T0B30 003:579 JLINK_ReadReg(R15 (PC))  returns 0x080043E0 (0000ms, 0492ms total)
T0B30 003:579 JLINK_ReadReg(XPSR)  returns 0x21000000 (0000ms, 0492ms total)
T0B30 003:579 JLINK_ReadReg(MSP)  returns 0x20004928 (0000ms, 0492ms total)
T0B30 003:579 JLINK_ReadReg(PSP)  returns 0x00000000 (0000ms, 0492ms total)
T0B30 003:579 JLINK_ReadReg(CFBP)  returns 0x00000000 (0000ms, 0492ms total)
T0B30 003:579 JLINK_ReadReg(FPSCR)  returns 0x00000000 (0011ms, 0503ms total)
T0B30 003:590 JLINK_ReadReg(FPS0)  returns 0x00000000 (0001ms, 0504ms total)
T0B30 003:591 JLINK_ReadReg(FPS1)  returns 0x00000000 (0000ms, 0504ms total)
T0B30 003:591 JLINK_ReadReg(FPS2)  returns 0x00000000 (0000ms, 0504ms total)
T0B30 003:591 JLINK_ReadReg(FPS3)  returns 0x00000000 (0000ms, 0504ms total)
T0B30 003:591 JLINK_ReadReg(FPS4)  returns 0x00000000 (0000ms, 0504ms total)
T0B30 003:591 JLINK_ReadReg(FPS5)  returns 0x00000000 (0000ms, 0504ms total)
T0B30 003:591 JLINK_ReadReg(FPS6)  returns 0x00000000 (0000ms, 0504ms total)
T0B30 003:591 JLINK_ReadReg(FPS7)  returns 0x00000000 (0000ms, 0504ms total)
T0B30 003:591 JLINK_ReadReg(FPS8)  returns 0x00000000 (0000ms, 0504ms total)
T0B30 003:591 JLINK_ReadReg(FPS9)  returns 0x00000000 (0000ms, 0504ms total)
T0B30 003:591 JLINK_ReadReg(FPS10)  returns 0x00000000 (0000ms, 0504ms total)
T0B30 003:591 JLINK_ReadReg(FPS11)  returns 0x00000000 (0000ms, 0504ms total)
T0B30 003:591 JLINK_ReadReg(FPS12)  returns 0x00000000 (0000ms, 0504ms total)
T0B30 003:591 JLINK_ReadReg(FPS13)  returns 0x00000000 (0001ms, 0505ms total)
T0B30 003:592 JLINK_ReadReg(FPS14)  returns 0x00000000 (0000ms, 0505ms total)
T0B30 003:592 JLINK_ReadReg(FPS15)  returns 0x00000000 (0000ms, 0505ms total)
T0B30 003:592 JLINK_ReadReg(FPS16)  returns 0x00000000 (0000ms, 0505ms total)
T0B30 003:592 JLINK_ReadReg(FPS17)  returns 0x00000000 (0000ms, 0505ms total)
T0B30 003:592 JLINK_ReadReg(FPS18)  returns 0x00000000 (0000ms, 0505ms total)
T0B30 003:592 JLINK_ReadReg(FPS19)  returns 0x00000000 (0000ms, 0505ms total)
T0B30 003:592 JLINK_ReadReg(FPS20)  returns 0x00000000 (0000ms, 0505ms total)
T0B30 003:592 JLINK_ReadReg(FPS21)  returns 0x00000000 (0000ms, 0505ms total)
T0B30 003:592 JLINK_ReadReg(FPS22)  returns 0x00000000 (0000ms, 0505ms total)
T0B30 003:592 JLINK_ReadReg(FPS23)  returns 0x00000000 (0000ms, 0505ms total)
T0B30 003:592 JLINK_ReadReg(FPS24)  returns 0x00000000 (0000ms, 0505ms total)
T0B30 003:592 JLINK_ReadReg(FPS25)  returns 0x00000000 (0000ms, 0505ms total)
T0B30 003:592 JLINK_ReadReg(FPS26)  returns 0x00000000 (0000ms, 0505ms total)
T0B30 003:592 JLINK_ReadReg(FPS27)  returns 0x00000000 (0000ms, 0505ms total)
T0B30 003:592 JLINK_ReadReg(FPS28)  returns 0x00000000 (0000ms, 0505ms total)
T0B30 003:592 JLINK_ReadReg(FPS29)  returns 0x00000000 (0000ms, 0505ms total)
T0B30 003:592 JLINK_ReadReg(FPS30)  returns 0x00000000 (0000ms, 0505ms total)
T0B30 003:592 JLINK_ReadReg(FPS31)  returns 0x00000000 (0000ms, 0505ms total)
T1D10 003:593 JLINK_ReadMem (0x2000492C, 0x0004 Bytes, ...) -- CPU_ReadMem(64 bytes @ 0x20004900) -- Updating C cache (64 bytes @ 0x20004900) -- Read from C cache (4 bytes @ 0x2000492C) - Data: 7D 85 00 08  returns 0x00 (0001ms, 0506ms total)
T1D10 003:594 JLINK_ReadMem (0x080043D6, 0x0002 Bytes, ...) -- CPU_ReadMem(64 bytes @ 0x080043C0) -- Updating C cache (64 bytes @ 0x080043C0) -- Read from C cache (2 bytes @ 0x080043D6) - Data: 13 48  returns 0x00 (0002ms, 0508ms total)
T1D10 003:596 JLINK_ReadMem (0x080043D8, 0x0028 Bytes, ...) -- Read from C cache (40 bytes @ 0x080043D8) - Data: FE F7 44 FF 12 49 08 80 01 20 06 49 18 31 08 60 ...  returns 0x00 (0000ms, 0508ms total)
T1D10 003:596 JLINK_ReadMem (0x08004400, 0x0014 Bytes, ...) -- CPU_ReadMem(64 bytes @ 0x08004400) -- Updating C cache (64 bytes @ 0x08004400) -- Read from C cache (20 bytes @ 0x08004400) - Data: 00 80 40 42 DE 00 00 20 E2 00 00 20 E6 00 00 20 ...  returns 0x00 (0002ms, 0510ms total)
T1D10 004:758 JLINK_ReadMem (0x20000594, 0x0002 Bytes, ...) -- CPU_ReadMem(64 bytes @ 0x20000580) -- Updating C cache (64 bytes @ 0x20000580) -- Read from C cache (2 bytes @ 0x20000594) - Data: 00 00  returns 0x00 (0002ms, 0512ms total)
T1D10 004:760 JLINK_ReadMem (0x20000596, 0x0002 Bytes, ...) -- Read from C cache (2 bytes @ 0x20000596) - Data: 00 00  returns 0x00 (0000ms, 0512ms total)
T1D10 004:760 JLINK_ReadMem (0x20000598, 0x0002 Bytes, ...) -- Read from C cache (2 bytes @ 0x20000598) - Data: 00 00  returns 0x00 (0000ms, 0512ms total)
T1D10 004:760 JLINK_ReadMem (0x2000059A, 0x0002 Bytes, ...) -- Read from C cache (2 bytes @ 0x2000059A) - Data: 00 00  returns 0x00 (0000ms, 0512ms total)
T1D10 004:760 JLINK_ReadMem (0x2000059C, 0x0002 Bytes, ...) -- Read from C cache (2 bytes @ 0x2000059C) - Data: 00 00  returns 0x00 (0000ms, 0512ms total)
T1D10 004:760 JLINK_ReadMem (0x2000059E, 0x0002 Bytes, ...) -- Read from C cache (2 bytes @ 0x2000059E) - Data: 00 00  returns 0x00 (0000ms, 0512ms total)
T1D10 004:760 JLINK_ReadMem (0x200005A0, 0x0002 Bytes, ...) -- Read from C cache (2 bytes @ 0x200005A0) - Data: 00 00  returns 0x00 (0000ms, 0512ms total)
T1D10 004:760 JLINK_ReadMem (0x200005A2, 0x0002 Bytes, ...) -- Read from C cache (2 bytes @ 0x200005A2) - Data: 00 00  returns 0x00 (0000ms, 0512ms total)
T0B30 006:498 JLINK_Step() -- Read from C cache (2 bytes @ 0x080043E0) -- CPU_ReadMem(4 bytes @ 0xE000ED18) -- CPU_WriteMem(4 bytes @ 0xE000ED18) -- CPU_ReadMem(4 bytes @ 0xE000ED18) -- CPU_WriteMem(4 bytes @ 0xE000ED18) -- CPU_ReadMem(4 bytes @ 0xE0001004) -- Simulated  returns 0x00 (0008ms, 0520ms total)
T0B30 006:506 JLINK_ReadReg(R15 (PC))  returns 0x080043E2 (0000ms, 0520ms total)
T0B30 006:506 JLINK_ReadReg(XPSR)  returns 0x21000000 (0000ms, 0520ms total)
T0B30 006:506 JLINK_SetBPEx(Addr = 0x080043E0, Type = 0xFFFFFFF2)  returns 0x00000004 (0000ms, 0520ms total)
T0B30 006:506 JLINK_Go() -- CPU_WriteMem(4 bytes @ 0xE0002000) -- CPU_ReadMem(4 bytes @ 0xE0001000) -- CPU_WriteMem(4 bytes @ 0xE0001004) (0005ms, 0525ms total)
T0B30 006:611 JLINK_IsHalted()  returns TRUE (0005ms, 0530ms total)
T0B30 006:616 JLINK_Halt()  returns 0x00 (0000ms, 0525ms total)
T0B30 006:616 JLINK_IsHalted()  returns TRUE (0000ms, 0525ms total)
T0B30 006:616 JLINK_IsHalted()  returns TRUE (0000ms, 0525ms total)
T0B30 006:616 JLINK_IsHalted()  returns TRUE (0000ms, 0525ms total)
T0B30 006:616 JLINK_ReadReg(R15 (PC))  returns 0x080043E0 (0000ms, 0525ms total)
T0B30 006:616 JLINK_ReadReg(XPSR)  returns 0x21000000 (0000ms, 0525ms total)
T0B30 006:616 JLINK_ClrBPEx(BPHandle = 0x00000004)  returns 0x00 (0000ms, 0525ms total)
T0B30 006:617 JLINK_ReadMemU32(0xE000ED30, 0x0001 Items, ...) -- CPU_ReadMem(4 bytes @ 0xE000ED30) - Data: 02 00 00 00  returns 0x01 (0000ms, 0525ms total)
T0B30 006:617 JLINK_ReadMemU32(0xE0001028, 0x0001 Items, ...) -- CPU_ReadMem(4 bytes @ 0xE0001028) - Data: 00 00 00 00  returns 0x01 (0001ms, 0526ms total)
T0B30 006:618 JLINK_ReadMemU32(0xE0001038, 0x0001 Items, ...) -- CPU_ReadMem(4 bytes @ 0xE0001038) - Data: 00 02 00 00  returns 0x01 (0001ms, 0527ms total)
T0B30 006:619 JLINK_ReadMemU32(0xE0001048, 0x0001 Items, ...) -- CPU_ReadMem(4 bytes @ 0xE0001048) - Data: 00 00 00 00  returns 0x01 (0001ms, 0528ms total)
T0B30 006:620 JLINK_ReadMemU32(0xE0001058, 0x0001 Items, ...) -- CPU_ReadMem(4 bytes @ 0xE0001058) - Data: 00 00 00 00  returns 0x01 (0001ms, 0529ms total)
T0B30 006:621 JLINK_ReadReg(R0)  returns 0x00000005 (0000ms, 0529ms total)
T0B30 006:621 JLINK_ReadReg(R1)  returns 0x20000594 (0000ms, 0529ms total)
T0B30 006:621 JLINK_ReadReg(R2)  returns 0x00000001 (0000ms, 0529ms total)
T0B30 006:621 JLINK_ReadReg(R3)  returns 0x00000000 (0000ms, 0529ms total)
T0B30 006:621 JLINK_ReadReg(R4)  returns 0x08008D5C (0000ms, 0529ms total)
T0B30 006:621 JLINK_ReadReg(R5)  returns 0x08008D5C (0000ms, 0529ms total)
T0B30 006:621 JLINK_ReadReg(R6)  returns 0x00000000 (0001ms, 0530ms total)
T0B30 006:622 JLINK_ReadReg(R7)  returns 0x00000000 (0000ms, 0530ms total)
T0B30 006:622 JLINK_ReadReg(R8)  returns 0x00000000 (0000ms, 0530ms total)
T0B30 006:622 JLINK_ReadReg(R9)  returns 0x00000000 (0000ms, 0530ms total)
T0B30 006:622 JLINK_ReadReg(R10)  returns 0x00000000 (0000ms, 0530ms total)
T0B30 006:622 JLINK_ReadReg(R11)  returns 0x00000000 (0000ms, 0530ms total)
T0B30 006:622 JLINK_ReadReg(R12)  returns 0x00000000 (0000ms, 0530ms total)
T0B30 006:622 JLINK_ReadReg(R13 (SP))  returns 0x20004928 (0000ms, 0530ms total)
T0B30 006:622 JLINK_ReadReg(R14)  returns 0x080043DD (0000ms, 0530ms total)
T0B30 006:622 JLINK_ReadReg(R15 (PC))  returns 0x080043E0 (0000ms, 0530ms total)
T0B30 006:622 JLINK_ReadReg(XPSR)  returns 0x21000000 (0000ms, 0530ms total)
T0B30 006:622 JLINK_ReadReg(MSP)  returns 0x20004928 (0000ms, 0530ms total)
T0B30 006:622 JLINK_ReadReg(PSP)  returns 0x00000000 (0000ms, 0530ms total)
T0B30 006:622 JLINK_ReadReg(CFBP)  returns 0x00000000 (0000ms, 0530ms total)
T0B30 006:622 JLINK_ReadReg(FPSCR)  returns 0x00000000 (0007ms, 0537ms total)
T0B30 006:630 JLINK_ReadReg(FPS0)  returns 0x00000000 (0000ms, 0537ms total)
T0B30 006:630 JLINK_ReadReg(FPS1)  returns 0x00000000 (0000ms, 0537ms total)
T0B30 006:630 JLINK_ReadReg(FPS2)  returns 0x00000000 (0000ms, 0537ms total)
T0B30 006:630 JLINK_ReadReg(FPS3)  returns 0x00000000 (0000ms, 0537ms total)
T0B30 006:630 JLINK_ReadReg(FPS4)  returns 0x00000000 (0000ms, 0537ms total)
T0B30 006:630 JLINK_ReadReg(FPS5)  returns 0x00000000 (0000ms, 0537ms total)
T0B30 006:630 JLINK_ReadReg(FPS6)  returns 0x00000000 (0000ms, 0537ms total)
T0B30 006:630 JLINK_ReadReg(FPS7)  returns 0x00000000 (0000ms, 0537ms total)
T0B30 006:630 JLINK_ReadReg(FPS8)  returns 0x00000000 (0000ms, 0537ms total)
T0B30 006:630 JLINK_ReadReg(FPS9)  returns 0x00000000 (0000ms, 0537ms total)
T0B30 006:630 JLINK_ReadReg(FPS10)  returns 0x00000000 (0000ms, 0537ms total)
T0B30 006:630 JLINK_ReadReg(FPS11)  returns 0x00000000 (0000ms, 0537ms total)
T0B30 006:630 JLINK_ReadReg(FPS12)  returns 0x00000000 (0000ms, 0537ms total)
T0B30 006:630 JLINK_ReadReg(FPS13)  returns 0x00000000 (0000ms, 0537ms total)
T0B30 006:630 JLINK_ReadReg(FPS14)  returns 0x00000000 (0000ms, 0537ms total)
T0B30 006:630 JLINK_ReadReg(FPS15)  returns 0x00000000 (0000ms, 0537ms total)
T0B30 006:630 JLINK_ReadReg(FPS16)  returns 0x00000000 (0000ms, 0537ms total)
T0B30 006:630 JLINK_ReadReg(FPS17)  returns 0x00000000 (0000ms, 0537ms total)
T0B30 006:630 JLINK_ReadReg(FPS18)  returns 0x00000000 (0000ms, 0537ms total)
T0B30 006:630 JLINK_ReadReg(FPS19)  returns 0x00000000 (0000ms, 0537ms total)
T0B30 006:630 JLINK_ReadReg(FPS20)  returns 0x00000000 (0000ms, 0537ms total)
T0B30 006:630 JLINK_ReadReg(FPS21)  returns 0x00000000 (0000ms, 0537ms total)
T0B30 006:630 JLINK_ReadReg(FPS22)  returns 0x00000000 (0000ms, 0537ms total)
T0B30 006:630 JLINK_ReadReg(FPS23)  returns 0x00000000 (0000ms, 0537ms total)
T0B30 006:630 JLINK_ReadReg(FPS24)  returns 0x00000000 (0000ms, 0537ms total)
T0B30 006:630 JLINK_ReadReg(FPS25)  returns 0x00000000 (0000ms, 0537ms total)
T0B30 006:630 JLINK_ReadReg(FPS26)  returns 0x00000000 (0000ms, 0537ms total)
T0B30 006:630 JLINK_ReadReg(FPS27)  returns 0x00000000 (0000ms, 0537ms total)
T0B30 006:630 JLINK_ReadReg(FPS28)  returns 0x00000000 (0000ms, 0537ms total)
T0B30 006:630 JLINK_ReadReg(FPS29)  returns 0x00000000 (0000ms, 0537ms total)
T0B30 006:630 JLINK_ReadReg(FPS30)  returns 0x00000000 (0000ms, 0537ms total)
T0B30 006:630 JLINK_ReadReg(FPS31)  returns 0x00000000 (0000ms, 0537ms total)
T1D10 006:631 JLINK_ReadMem (0x2000492C, 0x0004 Bytes, ...) -- CPU_ReadMem(64 bytes @ 0x20004900) -- Updating C cache (64 bytes @ 0x20004900) -- Read from C cache (4 bytes @ 0x2000492C) - Data: 7D 85 00 08  returns 0x00 (0001ms, 0538ms total)
T1D10 006:632 JLINK_ReadMem (0x20000594, 0x0002 Bytes, ...) -- CPU_ReadMem(64 bytes @ 0x20000580) -- Updating C cache (64 bytes @ 0x20000580) -- Read from C cache (2 bytes @ 0x20000594) - Data: 05 00  returns 0x00 (0002ms, 0540ms total)
T1D10 006:636 JLINK_ReadMem (0x20000596, 0x0002 Bytes, ...) -- Read from C cache (2 bytes @ 0x20000596) - Data: 04 00  returns 0x00 (0000ms, 0540ms total)
T1D10 006:636 JLINK_ReadMem (0x20000598, 0x0002 Bytes, ...) -- Read from C cache (2 bytes @ 0x20000598) - Data: 01 00  returns 0x00 (0000ms, 0540ms total)
T1D10 006:636 JLINK_ReadMem (0x2000059A, 0x0002 Bytes, ...) -- Read from C cache (2 bytes @ 0x2000059A) - Data: 2C 04  returns 0x00 (0000ms, 0540ms total)
T1D10 006:637 JLINK_ReadMem (0x2000059C, 0x0002 Bytes, ...) -- Read from C cache (2 bytes @ 0x2000059C) - Data: 00 00  returns 0x00 (0000ms, 0540ms total)
T1D10 006:637 JLINK_ReadMem (0x2000059E, 0x0002 Bytes, ...) -- Read from C cache (2 bytes @ 0x2000059E) - Data: 00 00  returns 0x00 (0000ms, 0540ms total)
T1D10 006:637 JLINK_ReadMem (0x200005A0, 0x0002 Bytes, ...) -- Read from C cache (2 bytes @ 0x200005A0) - Data: 00 00  returns 0x00 (0000ms, 0540ms total)
T1D10 006:637 JLINK_ReadMem (0x200005A2, 0x0002 Bytes, ...) -- Read from C cache (2 bytes @ 0x200005A2) - Data: 00 00  returns 0x00 (0000ms, 0540ms total)
T0B30 007:805 JLINK_Step() -- CPU_ReadMem(64 bytes @ 0x080043C0) -- Updating C cache (64 bytes @ 0x080043C0) -- Read from C cache (2 bytes @ 0x080043E0) -- CPU_ReadMem(4 bytes @ 0xE0001004) -- Simulated  returns 0x00 (0005ms, 0545ms total)
T0B30 007:810 JLINK_ReadReg(R15 (PC))  returns 0x080043E2 (0000ms, 0545ms total)
T0B30 007:810 JLINK_ReadReg(XPSR)  returns 0x21000000 (0000ms, 0545ms total)
T0B30 007:810 JLINK_SetBPEx(Addr = 0x080043E0, Type = 0xFFFFFFF2)  returns 0x00000005 (0000ms, 0545ms total)
T0B30 007:810 JLINK_Go() -- CPU_WriteMem(4 bytes @ 0xE0002000) -- CPU_ReadMem(4 bytes @ 0xE0001000) -- CPU_WriteMem(4 bytes @ 0xE0001004) (0006ms, 0551ms total)
T0B30 007:916 JLINK_IsHalted()  returns TRUE (0005ms, 0556ms total)
T0B30 007:921 JLINK_Halt()  returns 0x00 (0000ms, 0551ms total)
T0B30 007:921 JLINK_IsHalted()  returns TRUE (0001ms, 0552ms total)
T0B30 007:922 JLINK_IsHalted()  returns TRUE (0000ms, 0551ms total)
T0B30 007:922 JLINK_IsHalted()  returns TRUE (0000ms, 0551ms total)
T0B30 007:922 JLINK_ReadReg(R15 (PC))  returns 0x080043E0 (0000ms, 0551ms total)
T0B30 007:922 JLINK_ReadReg(XPSR)  returns 0x21000000 (0000ms, 0551ms total)
T0B30 007:922 JLINK_ClrBPEx(BPHandle = 0x00000005)  returns 0x00 (0000ms, 0551ms total)
T0B30 007:922 JLINK_ReadMemU32(0xE000ED30, 0x0001 Items, ...) -- CPU_ReadMem(4 bytes @ 0xE000ED30) - Data: 02 00 00 00  returns 0x01 (0002ms, 0553ms total)
T0B30 007:924 JLINK_ReadMemU32(0xE0001028, 0x0001 Items, ...) -- CPU_ReadMem(4 bytes @ 0xE0001028) - Data: 00 00 00 00  returns 0x01 (0001ms, 0554ms total)
T0B30 007:925 JLINK_ReadMemU32(0xE0001038, 0x0001 Items, ...) -- CPU_ReadMem(4 bytes @ 0xE0001038) - Data: 00 02 00 00  returns 0x01 (0001ms, 0555ms total)
T0B30 007:926 JLINK_ReadMemU32(0xE0001048, 0x0001 Items, ...) -- CPU_ReadMem(4 bytes @ 0xE0001048) - Data: 00 00 00 00  returns 0x01 (0001ms, 0556ms total)
T0B30 007:927 JLINK_ReadMemU32(0xE0001058, 0x0001 Items, ...) -- CPU_ReadMem(4 bytes @ 0xE0001058) - Data: 00 00 00 00  returns 0x01 (0001ms, 0557ms total)
T0B30 007:929 JLINK_ReadReg(R0)  returns 0x00000005 (0000ms, 0557ms total)
T0B30 007:929 JLINK_ReadReg(R1)  returns 0x20000594 (0000ms, 0557ms total)
T0B30 007:929 JLINK_ReadReg(R2)  returns 0x00000001 (0000ms, 0557ms total)
T0B30 007:929 JLINK_ReadReg(R3)  returns 0x00000000 (0000ms, 0557ms total)
T0B30 007:929 JLINK_ReadReg(R4)  returns 0x08008D5C (0000ms, 0557ms total)
T0B30 007:929 JLINK_ReadReg(R5)  returns 0x08008D5C (0000ms, 0557ms total)
T0B30 007:929 JLINK_ReadReg(R6)  returns 0x00000000 (0000ms, 0557ms total)
T0B30 007:929 JLINK_ReadReg(R7)  returns 0x00000000 (0000ms, 0557ms total)
T0B30 007:929 JLINK_ReadReg(R8)  returns 0x00000000 (0000ms, 0557ms total)
T0B30 007:929 JLINK_ReadReg(R9)  returns 0x00000000 (0000ms, 0557ms total)
T0B30 007:929 JLINK_ReadReg(R10)  returns 0x00000000 (0000ms, 0557ms total)
T0B30 007:929 JLINK_ReadReg(R11)  returns 0x00000000 (0000ms, 0557ms total)
T0B30 007:929 JLINK_ReadReg(R12)  returns 0x00000000 (0000ms, 0557ms total)
T0B30 007:929 JLINK_ReadReg(R13 (SP))  returns 0x20004928 (0000ms, 0557ms total)
T0B30 007:929 JLINK_ReadReg(R14)  returns 0x080043DD (0000ms, 0557ms total)
T0B30 007:929 JLINK_ReadReg(R15 (PC))  returns 0x080043E0 (0000ms, 0557ms total)
T0B30 007:929 JLINK_ReadReg(XPSR)  returns 0x21000000 (0000ms, 0557ms total)
T0B30 007:929 JLINK_ReadReg(MSP)  returns 0x20004928 (0000ms, 0557ms total)
T0B30 007:929 JLINK_ReadReg(PSP)  returns 0x00000000 (0000ms, 0557ms total)
T0B30 007:929 JLINK_ReadReg(CFBP)  returns 0x00000000 (0000ms, 0557ms total)
T0B30 007:929 JLINK_ReadReg(FPSCR)  returns 0x00000000 (0008ms, 0565ms total)
T0B30 007:937 JLINK_ReadReg(FPS0)  returns 0x00000000 (0000ms, 0565ms total)
T0B30 007:937 JLINK_ReadReg(FPS1)  returns 0x00000000 (0000ms, 0565ms total)
T0B30 007:937 JLINK_ReadReg(FPS2)  returns 0x00000000 (0000ms, 0565ms total)
T0B30 007:937 JLINK_ReadReg(FPS3)  returns 0x00000000 (0000ms, 0565ms total)
T0B30 007:937 JLINK_ReadReg(FPS4)  returns 0x00000000 (0000ms, 0565ms total)
T0B30 007:937 JLINK_ReadReg(FPS5)  returns 0x00000000 (0000ms, 0565ms total)
T0B30 007:937 JLINK_ReadReg(FPS6)  returns 0x00000000 (0000ms, 0565ms total)
T0B30 007:937 JLINK_ReadReg(FPS7)  returns 0x00000000 (0000ms, 0565ms total)
T0B30 007:937 JLINK_ReadReg(FPS8)  returns 0x00000000 (0000ms, 0565ms total)
T0B30 007:937 JLINK_ReadReg(FPS9)  returns 0x00000000 (0000ms, 0565ms total)
T0B30 007:937 JLINK_ReadReg(FPS10)  returns 0x00000000 (0000ms, 0565ms total)
T0B30 007:937 JLINK_ReadReg(FPS11)  returns 0x00000000 (0000ms, 0565ms total)
T0B30 007:937 JLINK_ReadReg(FPS12)  returns 0x00000000 (0000ms, 0565ms total)
T0B30 007:937 JLINK_ReadReg(FPS13)  returns 0x00000000 (0000ms, 0565ms total)
T0B30 007:937 JLINK_ReadReg(FPS14)  returns 0x00000000 (0000ms, 0565ms total)
T0B30 007:937 JLINK_ReadReg(FPS15)  returns 0x00000000 (0000ms, 0565ms total)
T0B30 007:937 JLINK_ReadReg(FPS16)  returns 0x00000000 (0000ms, 0565ms total)
T0B30 007:937 JLINK_ReadReg(FPS17)  returns 0x00000000 (0000ms, 0565ms total)
T0B30 007:937 JLINK_ReadReg(FPS18)  returns 0x00000000 (0000ms, 0565ms total)
T0B30 007:937 JLINK_ReadReg(FPS19)  returns 0x00000000 (0001ms, 0566ms total)
T0B30 007:938 JLINK_ReadReg(FPS20)  returns 0x00000000 (0000ms, 0566ms total)
T0B30 007:938 JLINK_ReadReg(FPS21)  returns 0x00000000 (0000ms, 0566ms total)
T0B30 007:938 JLINK_ReadReg(FPS22)  returns 0x00000000 (0000ms, 0566ms total)
T0B30 007:938 JLINK_ReadReg(FPS23)  returns 0x00000000 (0000ms, 0566ms total)
T0B30 007:938 JLINK_ReadReg(FPS24)  returns 0x00000000 (0000ms, 0566ms total)
T0B30 007:938 JLINK_ReadReg(FPS25)  returns 0x00000000 (0000ms, 0566ms total)
T0B30 007:938 JLINK_ReadReg(FPS26)  returns 0x00000000 (0000ms, 0566ms total)
T0B30 007:938 JLINK_ReadReg(FPS27)  returns 0x00000000 (0000ms, 0566ms total)
T0B30 007:938 JLINK_ReadReg(FPS28)  returns 0x00000000 (0000ms, 0566ms total)
T0B30 007:938 JLINK_ReadReg(FPS29)  returns 0x00000000 (0000ms, 0566ms total)
T0B30 007:938 JLINK_ReadReg(FPS30)  returns 0x00000000 (0000ms, 0566ms total)
T0B30 007:938 JLINK_ReadReg(FPS31)  returns 0x00000000 (0000ms, 0566ms total)
T1D10 007:938 JLINK_ReadMem (0x2000492C, 0x0004 Bytes, ...) -- CPU_ReadMem(64 bytes @ 0x20004900) -- Updating C cache (64 bytes @ 0x20004900) -- Read from C cache (4 bytes @ 0x2000492C) - Data: 7D 85 00 08  returns 0x00 (0002ms, 0568ms total)
T1D10 007:940 JLINK_ReadMem (0x20000594, 0x0002 Bytes, ...) -- CPU_ReadMem(64 bytes @ 0x20000580) -- Updating C cache (64 bytes @ 0x20000580) -- Read from C cache (2 bytes @ 0x20000594) - Data: 05 00  returns 0x00 (0001ms, 0569ms total)
T1D10 007:943 JLINK_ReadMem (0x20000596, 0x0002 Bytes, ...) -- Read from C cache (2 bytes @ 0x20000596) - Data: 05 00  returns 0x00 (0000ms, 0569ms total)
T1D10 007:943 JLINK_ReadMem (0x20000598, 0x0002 Bytes, ...) -- Read from C cache (2 bytes @ 0x20000598) - Data: 01 00  returns 0x00 (0000ms, 0569ms total)
T1D10 007:943 JLINK_ReadMem (0x2000059A, 0x0002 Bytes, ...) -- Read from C cache (2 bytes @ 0x2000059A) - Data: 2C 04  returns 0x00 (0000ms, 0569ms total)
T1D10 007:944 JLINK_ReadMem (0x2000059C, 0x0002 Bytes, ...) -- Read from C cache (2 bytes @ 0x2000059C) - Data: 00 00  returns 0x00 (0000ms, 0569ms total)
T1D10 007:944 JLINK_ReadMem (0x2000059E, 0x0002 Bytes, ...) -- Read from C cache (2 bytes @ 0x2000059E) - Data: 00 00  returns 0x00 (0000ms, 0569ms total)
T1D10 007:944 JLINK_ReadMem (0x200005A0, 0x0002 Bytes, ...) -- Read from C cache (2 bytes @ 0x200005A0) - Data: 00 00  returns 0x00 (0000ms, 0569ms total)
T1D10 007:944 JLINK_ReadMem (0x200005A2, 0x0002 Bytes, ...) -- Read from C cache (2 bytes @ 0x200005A2) - Data: 00 00  returns 0x00 (0000ms, 0569ms total)
T0B30 008:679 JLINK_Step() -- CPU_ReadMem(64 bytes @ 0x080043C0) -- Updating C cache (64 bytes @ 0x080043C0) -- Read from C cache (2 bytes @ 0x080043E0) -- CPU_ReadMem(4 bytes @ 0xE0001004) -- Simulated  returns 0x00 (0005ms, 0574ms total)
T0B30 008:684 JLINK_ReadReg(R15 (PC))  returns 0x080043E2 (0000ms, 0574ms total)
T0B30 008:684 JLINK_ReadReg(XPSR)  returns 0x21000000 (0000ms, 0574ms total)
T0B30 008:684 JLINK_SetBPEx(Addr = 0x080043E0, Type = 0xFFFFFFF2)  returns 0x00000006 (0000ms, 0574ms total)
T0B30 008:684 JLINK_Go() -- CPU_WriteMem(4 bytes @ 0xE0002000) -- CPU_ReadMem(4 bytes @ 0xE0001000) -- CPU_WriteMem(4 bytes @ 0xE0001004) (0012ms, 0586ms total)
T0B30 008:796 JLINK_IsHalted()  returns TRUE (0005ms, 0591ms total)
T0B30 008:801 JLINK_Halt()  returns 0x00 (0001ms, 0587ms total)
T0B30 008:802 JLINK_IsHalted()  returns TRUE (0000ms, 0587ms total)
T0B30 008:802 JLINK_IsHalted()  returns TRUE (0000ms, 0587ms total)
T0B30 008:802 JLINK_IsHalted()  returns TRUE (0000ms, 0587ms total)
T0B30 008:802 JLINK_ReadReg(R15 (PC))  returns 0x080043E0 (0000ms, 0587ms total)
T0B30 008:802 JLINK_ReadReg(XPSR)  returns 0x21000000 (0000ms, 0587ms total)
T0B30 008:802 JLINK_ClrBPEx(BPHandle = 0x00000006)  returns 0x00 (0000ms, 0587ms total)
T0B30 008:802 JLINK_ReadMemU32(0xE000ED30, 0x0001 Items, ...) -- CPU_ReadMem(4 bytes @ 0xE000ED30) - Data: 02 00 00 00  returns 0x01 (0001ms, 0588ms total)
T0B30 008:803 JLINK_ReadMemU32(0xE0001028, 0x0001 Items, ...) -- CPU_ReadMem(4 bytes @ 0xE0001028) - Data: 00 00 00 00  returns 0x01 (0001ms, 0589ms total)
T0B30 008:804 JLINK_ReadMemU32(0xE0001038, 0x0001 Items, ...) -- CPU_ReadMem(4 bytes @ 0xE0001038) - Data: 00 02 00 00  returns 0x01 (0001ms, 0590ms total)
T0B30 008:805 JLINK_ReadMemU32(0xE0001048, 0x0001 Items, ...) -- CPU_ReadMem(4 bytes @ 0xE0001048) - Data: 00 00 00 00  returns 0x01 (0001ms, 0591ms total)
T0B30 008:806 JLINK_ReadMemU32(0xE0001058, 0x0001 Items, ...) -- CPU_ReadMem(4 bytes @ 0xE0001058) - Data: 00 00 00 00  returns 0x01 (0001ms, 0592ms total)
T0B30 008:807 JLINK_ReadReg(R0)  returns 0x00000003 (0000ms, 0592ms total)
T0B30 008:807 JLINK_ReadReg(R1)  returns 0x20000594 (0000ms, 0592ms total)
T0B30 008:807 JLINK_ReadReg(R2)  returns 0x00000001 (0000ms, 0592ms total)
T0B30 008:807 JLINK_ReadReg(R3)  returns 0x00000000 (0000ms, 0592ms total)
T0B30 008:807 JLINK_ReadReg(R4)  returns 0x08008D5C (0000ms, 0592ms total)
T0B30 008:807 JLINK_ReadReg(R5)  returns 0x08008D5C (0001ms, 0593ms total)
T0B30 008:808 JLINK_ReadReg(R6)  returns 0x00000000 (0000ms, 0593ms total)
T0B30 008:808 JLINK_ReadReg(R7)  returns 0x00000000 (0000ms, 0593ms total)
T0B30 008:808 JLINK_ReadReg(R8)  returns 0x00000000 (0000ms, 0593ms total)
T0B30 008:808 JLINK_ReadReg(R9)  returns 0x00000000 (0000ms, 0593ms total)
T0B30 008:808 JLINK_ReadReg(R10)  returns 0x00000000 (0000ms, 0593ms total)
T0B30 008:808 JLINK_ReadReg(R11)  returns 0x00000000 (0000ms, 0593ms total)
T0B30 008:808 JLINK_ReadReg(R12)  returns 0x00000000 (0000ms, 0593ms total)
T0B30 008:808 JLINK_ReadReg(R13 (SP))  returns 0x20004928 (0000ms, 0593ms total)
T0B30 008:808 JLINK_ReadReg(R14)  returns 0x080043DD (0000ms, 0593ms total)
T0B30 008:808 JLINK_ReadReg(R15 (PC))  returns 0x080043E0 (0000ms, 0593ms total)
T0B30 008:808 JLINK_ReadReg(XPSR)  returns 0x21000000 (0000ms, 0593ms total)
T0B30 008:808 JLINK_ReadReg(MSP)  returns 0x20004928 (0000ms, 0593ms total)
T0B30 008:808 JLINK_ReadReg(PSP)  returns 0x00000000 (0000ms, 0593ms total)
T0B30 008:808 JLINK_ReadReg(CFBP)  returns 0x00000000 (0000ms, 0593ms total)
T0B30 008:808 JLINK_ReadReg(FPSCR)  returns 0x00000000 (0007ms, 0600ms total)
T0B30 008:815 JLINK_ReadReg(FPS0)  returns 0x00000000 (0000ms, 0600ms total)
T0B30 008:815 JLINK_ReadReg(FPS1)  returns 0x00000000 (0000ms, 0600ms total)
T0B30 008:815 JLINK_ReadReg(FPS2)  returns 0x00000000 (0001ms, 0601ms total)
T0B30 008:816 JLINK_ReadReg(FPS3)  returns 0x00000000 (0000ms, 0601ms total)
T0B30 008:816 JLINK_ReadReg(FPS4)  returns 0x00000000 (0000ms, 0601ms total)
T0B30 008:816 JLINK_ReadReg(FPS5)  returns 0x00000000 (0000ms, 0601ms total)
T0B30 008:816 JLINK_ReadReg(FPS6)  returns 0x00000000 (0000ms, 0601ms total)
T0B30 008:816 JLINK_ReadReg(FPS7)  returns 0x00000000 (0000ms, 0601ms total)
T0B30 008:816 JLINK_ReadReg(FPS8)  returns 0x00000000 (0000ms, 0601ms total)
T0B30 008:816 JLINK_ReadReg(FPS9)  returns 0x00000000 (0000ms, 0601ms total)
T0B30 008:816 JLINK_ReadReg(FPS10)  returns 0x00000000 (0000ms, 0601ms total)
T0B30 008:816 JLINK_ReadReg(FPS11)  returns 0x00000000 (0000ms, 0601ms total)
T0B30 008:816 JLINK_ReadReg(FPS12)  returns 0x00000000 (0000ms, 0601ms total)
T0B30 008:816 JLINK_ReadReg(FPS13)  returns 0x00000000 (0000ms, 0601ms total)
T0B30 008:816 JLINK_ReadReg(FPS14)  returns 0x00000000 (0000ms, 0601ms total)
T0B30 008:816 JLINK_ReadReg(FPS15)  returns 0x00000000 (0000ms, 0601ms total)
T0B30 008:816 JLINK_ReadReg(FPS16)  returns 0x00000000 (0000ms, 0601ms total)
T0B30 008:816 JLINK_ReadReg(FPS17)  returns 0x00000000 (0000ms, 0601ms total)
T0B30 008:816 JLINK_ReadReg(FPS18)  returns 0x00000000 (0000ms, 0601ms total)
T0B30 008:816 JLINK_ReadReg(FPS19)  returns 0x00000000 (0000ms, 0601ms total)
T0B30 008:816 JLINK_ReadReg(FPS20)  returns 0x00000000 (0000ms, 0601ms total)
T0B30 008:816 JLINK_ReadReg(FPS21)  returns 0x00000000 (0000ms, 0601ms total)
T0B30 008:816 JLINK_ReadReg(FPS22)  returns 0x00000000 (0000ms, 0601ms total)
T0B30 008:816 JLINK_ReadReg(FPS23)  returns 0x00000000 (0000ms, 0601ms total)
T0B30 008:816 JLINK_ReadReg(FPS24)  returns 0x00000000 (0000ms, 0601ms total)
T0B30 008:816 JLINK_ReadReg(FPS25)  returns 0x00000000 (0000ms, 0601ms total)
T0B30 008:816 JLINK_ReadReg(FPS26)  returns 0x00000000 (0000ms, 0601ms total)
T0B30 008:816 JLINK_ReadReg(FPS27)  returns 0x00000000 (0000ms, 0601ms total)
T0B30 008:816 JLINK_ReadReg(FPS28)  returns 0x00000000 (0000ms, 0601ms total)
T0B30 008:816 JLINK_ReadReg(FPS29)  returns 0x00000000 (0000ms, 0601ms total)
T0B30 008:816 JLINK_ReadReg(FPS30)  returns 0x00000000 (0000ms, 0601ms total)
T0B30 008:816 JLINK_ReadReg(FPS31)  returns 0x00000000 (0000ms, 0601ms total)
T1D10 008:818 JLINK_ReadMem (0x2000492C, 0x0004 Bytes, ...) -- CPU_ReadMem(64 bytes @ 0x20004900) -- Updating C cache (64 bytes @ 0x20004900) -- Read from C cache (4 bytes @ 0x2000492C) - Data: 7D 85 00 08  returns 0x00 (0001ms, 0602ms total)
T1D10 008:819 JLINK_ReadMem (0x20000594, 0x0002 Bytes, ...) -- CPU_ReadMem(64 bytes @ 0x20000580) -- Updating C cache (64 bytes @ 0x20000580) -- Read from C cache (2 bytes @ 0x20000594) - Data: 03 00  returns 0x00 (0002ms, 0604ms total)
T1D10 008:822 JLINK_ReadMem (0x20000596, 0x0002 Bytes, ...) -- Read from C cache (2 bytes @ 0x20000596) - Data: 03 00  returns 0x00 (0000ms, 0604ms total)
T1D10 008:822 JLINK_ReadMem (0x20000598, 0x0002 Bytes, ...) -- Read from C cache (2 bytes @ 0x20000598) - Data: 01 00  returns 0x00 (0001ms, 0605ms total)
T1D10 008:823 JLINK_ReadMem (0x2000059A, 0x0002 Bytes, ...) -- Read from C cache (2 bytes @ 0x2000059A) - Data: 2C 04  returns 0x00 (0000ms, 0605ms total)
T1D10 008:823 JLINK_ReadMem (0x2000059C, 0x0002 Bytes, ...) -- Read from C cache (2 bytes @ 0x2000059C) - Data: 00 00  returns 0x00 (0000ms, 0605ms total)
